T0894 47264:091 SEGGER J-Link V6.20 Log File (0001ms, 368633ms total)
T0894 47264:091 DLL Compiled: Sep  8 2017 18:04:35 (0001ms, 368633ms total)
T0894 47264:091 Logging started @ 2018-04-21 22:30 (0001ms, 368633ms total)
T0894 47264:092 JLINK_SetWarnOutHandler(...) (0000ms, 368633ms total)
T0894 47264:092 JLINK_OpenEx(...)
Firmware: J-Link ARM-OB STM32 compiled Aug 22 2012 19:52:04
Hardware: V7.00
S/N: 20090928
Feature(s): RDI,FlashDL,FlashBP,JFlash,GDB
TELNET listener socket opened on port 19021WEBSRV 
Webserver running on local port 19080  returns O.K. (0133ms, 368766ms total)
T0894 47264:225 JLINK_GetEmuCaps()  returns 0x88EA5833 (0000ms, 368766ms total)
T0894 47264:226 JLINK_TIF_GetAvailable(...) (0000ms, 368766ms total)
T0894 47264:226 JLINK_SetErrorOutHandler(...) (0000ms, 368766ms total)
T0894 47264:226 JLINK_ExecCommand("ProjectFile = "C:\Users\Lenovo\Desktop\405-freeRTOS\MDK-ARM\JLinkSettings.ini"", ...).   returns 0x00 (0003ms, 368769ms total)
T0894 47264:234 JLINK_ExecCommand("Device = STM32F405RGTx", ...). Device "STM32F405RG" selected.  returns 0x00 (0009ms, 368778ms total)
T0894 47264:243 JLINK_ExecCommand("DisableConnectionTimeout", ...).   returns 0x01 (0000ms, 368778ms total)
T0894 47264:243 JLINK_GetHardwareVersion()  returns 0x11170 (0000ms, 368778ms total)
T0894 47264:243 JLINK_GetDLLVersion()  returns 62000 (0000ms, 368778ms total)
T0894 47264:243 JLINK_GetFirmwareString(...) (0000ms, 368778ms total)
T0894 47264:257 JLINK_GetDLLVersion()  returns 62000 (0001ms, 368779ms total)
T0894 47264:258 JLINK_GetCompileDateTime() (0000ms, 368779ms total)
T0894 47264:265 JLINK_GetFirmwareString(...) (0000ms, 368779ms total)
T0894 47264:271 JLINK_GetHardwareVersion()  returns 0x11170 (0000ms, 368779ms total)
T0894 47264:294 JLINK_TIF_Select(JLINKARM_TIF_SWD)  returns 0x00 (0001ms, 368780ms total)
T0894 47264:295 JLINK_SetSpeed(20000) (0000ms, 368780ms total)
T0894 47264:295 JLINK_GetId() >0x10B TIF>Found SW-DP with ID 0x2BA01477 >0x0D TIF> >0x28 TIF> >0x0D TIF> >0x28 TIF> >0x0D TIF> >0x28 TIF> >0x0D TIF> >0x28 TIF> >0x0D TIF> >0x21 TIF> >0x0D TIF> >0x28 TIF> >0x0D TIF> >0x28 TIF> >0x0D TIF> >0x28 TIF> >0x0D TIF> >0x21 TIF> >0x0D TIF> >0x21 TIF> >0x0D TIF> >0x28 TIF> >0x0D TIF> >0x21 TIF> >0x0D TIF> >0x21 TIF> >0x0D TIF> >0x28 TIF> >0x0D TIF> >0x21 TIF> >0x0D TIF> >0x21 TIF> >0x0D TIF> >0x28 TIF> >0x0D TIF> >0x21 TIF> >0x0D TIF> >0x21 TIF> >0x0D TIF>
 >0x28 TIF> >0x0D TIF> >0x21 TIF> >0x0D TIF> >0x21 TIF> >0x0D TIF> >0x28 TIF> >0x0D TIF> >0x21 TIF> >0x0D TIF> >0x21 TIF> >0x10B TIF>Found SW-DP with ID 0x2BA01477 >0x0D TIF> >0x28 TIF> >0x0D TIF> >0x28 TIF> >0x0D TIF> >0x28 TIF> >0x0D TIF> >0x28 TIF> >0x0D TIF> >0x21 TIF> >0x0D TIF> >0x28 TIF>Scanning AP map to find all available APs >0x0D TIF> >0x28 TIF> >0x0D TIF> >0x21 TIF> >0x0D TIF> >0x21 TIF> >0x0D TIF> >0x28 TIF> >0x0D TIF> >0x21 TIF> >0x0D TIF> >0x21 TIF>
AP[1]: Stopped AP scan as end of AP map has been reachedAP[0]: AHB-AP (IDR: 0x24770011)Iterating through AP map to find AHB-AP to use >0x42 TIF> >0x28 TIF> >0x0D TIF> >0x21 TIF> >0x0D TIF> >0x21 TIF> >0x42 TIF> >0x28 TIF> >0x0D TIF> >0x28 TIF> >0x0D TIF> >0x28 TIF> >0x0D TIF> >0x21 TIF> >0x0D TIF> >0x21 TIF>AP[0]: Core foundAP[0]: AHB-AP ROM base: 0xE00FF000 >0x0D TIF> >0x28 TIF> >0x0D TIF> >0x28 TIF> >0x0D TIF> >0x28 TIF> >0x0D TIF> >0x21 TIF> >0x0D TIF> >0x21 TIF>
CPUID register: 0x410FC241. Implementer code: 0x41 (ARM)Found Cortex-M4 r0p1, Little endian. -- CPU_ReadMem(4 bytes @ 0xE000EDF0) -- CPU_WriteMem(4 bytes @ 0xE000EDF0) -- CPU_ReadMem(4 bytes @ 0xE0002000)FPUnit: 6 code (BP) slots and 2 literal slots -- CPU_ReadMem(4 bytes @ 0xE000EDFC) -- CPU_WriteMem(4 bytes @ 0xE000EDFC) -- CPU_ReadMem(4 bytes @ 0xE0001000) -- CPU_WriteMem(4 bytes @ 0xE0001000) -- CPU_ReadMem(4 bytes @ 0xE000ED88) -- CPU_WriteMem(4 bytes @ 0xE000ED88)
 -- CPU_ReadMem(4 bytes @ 0xE000ED88) -- CPU_WriteMem(4 bytes @ 0xE000ED88)CoreSight components:ROMTbl[0] @ E00FF000 -- CPU_ReadMem(16 bytes @ 0xE00FF000) -- CPU_ReadMem(16 bytes @ 0xE000EFF0) -- CPU_ReadMem(16 bytes @ 0xE000EFE0)ROMTbl[0][0]: E000E000, CID: B105E00D, PID: 000BB00C SCS -- CPU_ReadMem(16 bytes @ 0xE0001FF0) -- CPU_ReadMem(16 bytes @ 0xE0001FE0)ROMTbl[0][1]: E0001000, CID: B105E00D, PID: 003BB002 DWT -- CPU_ReadMem(16 bytes @ 0xE0002FF0) -- CPU_ReadMem(16 bytes @ 0xE0002FE0)
ROMTbl[0][2]: E0002000, CID: B105E00D, PID: 002BB003 FPB -- CPU_ReadMem(16 bytes @ 0xE0000FF0) -- CPU_ReadMem(16 bytes @ 0xE0000FE0)ROMTbl[0][3]: E0000000, CID: B105E00D, PID: 003BB001 ITM -- CPU_ReadMem(16 bytes @ 0xE00FF010) -- CPU_ReadMem(16 bytes @ 0xE0040FF0) -- CPU_ReadMem(16 bytes @ 0xE0040FE0)ROMTbl[0][4]: E0040000, CID: B105900D, PID: 000BB9A1 TPIU -- CPU_ReadMem(16 bytes @ 0xE0041FF0) -- CPU_ReadMem(16 bytes @ 0xE0041FE0)ROMTbl[0][5]: E0041000, CID: B105900D, PID: 000BB925 ETM >0x0D TIF>
 >0x21 TIF>  returns 0x2BA01477 (0272ms, 369052ms total)
T0894 47264:567 JLINK_GetDLLVersion()  returns 62000 (0000ms, 369052ms total)
T0894 47264:567 JLINK_CORE_GetFound()  returns 0xE0000FF (0000ms, 369052ms total)
T0894 47264:567 JLINK_GetDebugInfo(0x100 = JLINKARM_ROM_TABLE_ADDR_INDEX) -- Value=0xE00FF000  returns 0x00 (0000ms, 369052ms total)
T0894 47264:573 JLINK_GetDebugInfo(0x100 = JLINKARM_ROM_TABLE_ADDR_INDEX) -- Value=0xE00FF000  returns 0x00 (0000ms, 369052ms total)
T0894 47264:573 JLINK_GetDebugInfo(0x101 = JLINKARM_DEBUG_INFO_ETM_ADDR_INDEX) -- Value=0xE0041000  returns 0x00 (0000ms, 369052ms total)
T0894 47264:573 JLINK_ReadMemEx(0xE0041FD0, 0x0020 Bytes, ..., Flags = 0x02000004) -- CPU_ReadMem(32 bytes @ 0xE0041FD0) - Data: 04 00 00 00 00 00 00 00 00 00 00 00 00 00 00 00 ...  returns 0x20 (0001ms, 369053ms total)
T0894 47264:574 JLINK_GetDebugInfo(0x102 = JLINKARM_DEBUG_INFO_MTB_ADDR_INDEX) -- Value=0x00000000  returns 0x00 (0001ms, 369054ms total)
T0894 47264:575 JLINK_GetDebugInfo(0x103 = JLINKARM_DEBUG_INFO_TPIU_ADDR_INDEX) -- Value=0xE0040000  returns 0x00 (0000ms, 369054ms total)
T0894 47264:575 JLINK_GetDebugInfo(0x104 = JLINKARM_DEBUG_INFO_ITM_ADDR_INDEX) -- Value=0xE0000000  returns 0x00 (0000ms, 369054ms total)
T0894 47264:575 JLINK_GetDebugInfo(0x105 = JLINKARM_DEBUG_INFO_DWT_ADDR_INDEX) -- Value=0xE0001000  returns 0x00 (0000ms, 369054ms total)
T0894 47264:575 JLINK_GetDebugInfo(0x106 = JLINKARM_DEBUG_INFO_FPB_ADDR_INDEX) -- Value=0xE0002000  returns 0x00 (0000ms, 369054ms total)
T0894 47264:575 JLINK_GetDebugInfo(0x107 = JLINKARM_DEBUG_INFO_NVIC_ADDR_INDEX) -- Value=0xE000E000  returns 0x00 (0000ms, 369054ms total)
T0894 47264:575 JLINK_GetDebugInfo(0x10C = JLINKARM_DEBUG_INFO_DBG_ADDR_INDEX) -- Value=0xE000EDF0  returns 0x00 (0000ms, 369054ms total)
T0894 47264:575 JLINK_ReadMemU32(0xE000EF40, 0x0001 Items, ...) -- CPU_ReadMem(4 bytes @ 0xE000EF40) - Data: 21 00 11 10  returns 0x01 (0001ms, 369055ms total)
T0894 47264:576 JLINK_ReadMemU32(0xE000EF44, 0x0001 Items, ...) -- CPU_ReadMem(4 bytes @ 0xE000EF44) - Data: 11 00 00 11  returns 0x01 (0000ms, 369055ms total)
T0894 47264:576 JLINK_ReadMemU32(0xE000ED00, 0x0001 Items, ...) -- CPU_ReadMem(4 bytes @ 0xE000ED00) - Data: 41 C2 0F 41  returns 0x01 (0001ms, 369056ms total)
T0894 47264:577 JLINK_GetDebugInfo(0x10F = JLINKARM_DEBUG_INFO_HAS_CORTEX_M_SECURITY_EXT_INDEX) -- Value=0x00000000  returns 0x00 (0000ms, 369056ms total)
T0894 47264:577 JLINK_SetResetType(JLINKARM_CM3_RESET_TYPE_NORMAL)  returns JLINKARM_CM3_RESET_TYPE_NORMAL (0000ms, 369056ms total)
T0894 47264:577 JLINK_Reset() -- CPU is running -- CPU_WriteMem(4 bytes @ 0xE000EDF0) -- CPU is running -- CPU_WriteMem(4 bytes @ 0xE000EDFC)Reset: Halt core after reset via DEMCR.VC_CORERESET. >0x35 TIF>Reset: Reset device via AIRCR.SYSRESETREQ. -- CPU is running -- CPU_WriteMem(4 bytes @ 0xE000ED0C) >0x0D TIF> >0x28 TIF> -- CPU_ReadMem(4 bytes @ 0xE000EDF0) -- CPU_ReadMem(4 bytes @ 0xE000EDF0) -- CPU is running -- CPU_WriteMem(4 bytes @ 0xE000EDF0) -- CPU is running
 -- CPU_WriteMem(4 bytes @ 0xE000EDFC) -- CPU_ReadMem(4 bytes @ 0xE000EDF0) -- CPU_WriteMem(4 bytes @ 0xE0002000) -- CPU_ReadMem(4 bytes @ 0xE000EDFC) -- CPU_ReadMem(4 bytes @ 0xE0001000) (0083ms, 369139ms total)
T0894 47264:660 JLINK_Halt()  returns 0x00 (0001ms, 369140ms total)
T0894 47264:661 JLINK_ReadMemU32(0xE000EDF0, 0x0001 Items, ...) -- CPU_ReadMem(4 bytes @ 0xE000EDF0) - Data: 03 00 03 00  returns 0x01 (0001ms, 369141ms total)
T0894 47264:662 JLINK_WriteU32(0xE000EDF0, 0xA05F0003) -- CPU_WriteMem(4 bytes @ 0xE000EDF0)  returns 0x00 (0001ms, 369142ms total)
T0894 47264:663 JLINK_WriteU32(0xE000EDFC, 0x01000000) -- CPU_WriteMem(4 bytes @ 0xE000EDFC)  returns 0x00 (0001ms, 369143ms total)
T0894 47264:698 JLINK_GetHWStatus(...)  returns 0x00 (0001ms, 369144ms total)
T0894 47264:720 JLINK_GetNumBPUnits(Type = 0xFFFFFF00)  returns 0x06 (0000ms, 369144ms total)
T0894 47264:720 JLINK_GetNumBPUnits(Type = 0xF0)  returns 0x2000 (0000ms, 369144ms total)
T0894 47264:720 JLINK_GetNumWPUnits()  returns 0x04 (0000ms, 369144ms total)
T0894 47264:743 JLINK_GetSpeed()  returns 0xFA0 (0000ms, 369144ms total)
T0894 47264:759 JLINK_ReadMemU32(0xE000E004, 0x0001 Items, ...) -- CPU_ReadMem(4 bytes @ 0xE000E004) - Data: 02 00 00 00  returns 0x01 (0001ms, 369145ms total)
T0894 47264:760 JLINK_ReadMemU32(0xE000E004, 0x0001 Items, ...) -- CPU_ReadMem(4 bytes @ 0xE000E004) - Data: 02 00 00 00  returns 0x01 (0000ms, 369145ms total)
T0894 47264:760 JLINK_WriteMemEx(0xE0001000, 0x001C Bytes, ..., Flags = 0x02000004) - Data: 01 00 00 00 00 00 00 00 00 00 00 00 00 00 00 00 ... -- CPU_WriteMem(28 bytes @ 0xE0001000)  returns 0x1C (0002ms, 369147ms total)
T0894 47264:763 JLINK_Halt()  returns 0x00 (0000ms, 369147ms total)
T0894 47264:763 JLINK_IsHalted()  returns TRUE (0000ms, 369147ms total)
T0894 47264:767 JLINK_WriteMem(0x20000000, 0x0180 Bytes, ...) - Data: 00 BE 0A E0 0D 78 2D 06 68 40 08 24 40 00 00 D3 ... -- CPU_WriteMem(384 bytes @ 0x20000000)  returns 0x180 (0007ms, 369154ms total)
T0894 47264:774 JLINK_WriteReg(R0, 0x08000000)  returns 0x00 (0000ms, 369154ms total)
T0894 47264:774 JLINK_WriteReg(R1, 0x0A037A00)  returns 0x00 (0000ms, 369154ms total)
T0894 47264:774 JLINK_WriteReg(R2, 0x00000001)  returns 0x00 (0000ms, 369154ms total)
T0894 47264:774 JLINK_WriteReg(R3, 0x00000000)  returns 0x00 (0000ms, 369154ms total)
T0894 47264:774 JLINK_WriteReg(R4, 0x00000000)  returns 0x00 (0000ms, 369154ms total)
T0894 47264:774 JLINK_WriteReg(R5, 0x00000000)  returns 0x00 (0000ms, 369154ms total)
T0894 47264:774 JLINK_WriteReg(R6, 0x00000000)  returns 0x00 (0000ms, 369154ms total)
T0894 47264:774 JLINK_WriteReg(R7, 0x00000000)  returns 0x00 (0000ms, 369154ms total)
T0894 47264:774 JLINK_WriteReg(R8, 0x00000000)  returns 0x00 (0001ms, 369155ms total)
T0894 47264:775 JLINK_WriteReg(R9, 0x2000017C)  returns 0x00 (0000ms, 369155ms total)
T0894 47264:775 JLINK_WriteReg(R10, 0x00000000)  returns 0x00 (0000ms, 369155ms total)
T0894 47264:775 JLINK_WriteReg(R11, 0x00000000)  returns 0x00 (0000ms, 369155ms total)
T0894 47264:775 JLINK_WriteReg(R12, 0x00000000)  returns 0x00 (0000ms, 369155ms total)
T0894 47264:775 JLINK_WriteReg(R13 (SP), 0x20001000)  returns 0x00 (0000ms, 369155ms total)
T0894 47264:775 JLINK_WriteReg(R14, 0x20000001)  returns 0x00 (0000ms, 369155ms total)
T0894 47264:775 JLINK_WriteReg(R15 (PC), 0x20000054)  returns 0x00 (0000ms, 369155ms total)
T0894 47264:775 JLINK_WriteReg(XPSR, 0x01000000)  returns 0x00 (0000ms, 369155ms total)
T0894 47264:775 JLINK_WriteReg(MSP, 0x20001000)  returns 0x00 (0000ms, 369155ms total)
T0894 47264:775 JLINK_WriteReg(PSP, 0x20001000)  returns 0x00 (0000ms, 369155ms total)
T0894 47264:775 JLINK_WriteReg(CFBP, 0x00000000)  returns 0x00 (0000ms, 369155ms total)
T0894 47264:775 JLINK_SetBPEx(Addr = 0x20000000, Type = 0xFFFFFFF2) -- CPU_ReadMem(2 bytes @ 0x20000000)  returns 0x00000001 (0001ms, 369156ms total)
T0894 47264:776 JLINK_Go() -- CPU_WriteMem(2 bytes @ 0x20000000) -- CPU_ReadMem(4 bytes @ 0xE0001000) -- CPU_WriteMem(4 bytes @ 0xE0002008) -- CPU_WriteMem(4 bytes @ 0xE000200C) -- CPU_WriteMem(4 bytes @ 0xE0002010) -- CPU_WriteMem(4 bytes @ 0xE0002014) -- CPU_WriteMem(4 bytes @ 0xE0002018) -- CPU_WriteMem(4 bytes @ 0xE000201C) -- CPU_WriteMem(4 bytes @ 0xE0001004) (0007ms, 369163ms total)
T0894 47264:783 JLINK_IsHalted() -- CPU_ReadMem(2 bytes @ 0x20000000)  returns TRUE (0005ms, 369168ms total)
T0894 47264:788 JLINK_ReadReg(R15 (PC))  returns 0x20000000 (0000ms, 369163ms total)
T0894 47264:788 JLINK_ClrBPEx(BPHandle = 0x00000001)  returns 0x00 (0000ms, 369163ms total)
T0894 47264:788 JLINK_ReadReg(R0)  returns 0x00000000 (0001ms, 369164ms total)
T0894 47264:789 JLINK_WriteReg(R0, 0x08000000)  returns 0x00 (0000ms, 369164ms total)
T0894 47264:789 JLINK_WriteReg(R1, 0x00004000)  returns 0x00 (0000ms, 369164ms total)
T0894 47264:789 JLINK_WriteReg(R2, 0x000000FF)  returns 0x00 (0001ms, 369165ms total)
T0894 47264:790 JLINK_WriteReg(R3, 0x00000000)  returns 0x00 (0000ms, 369165ms total)
T0894 47264:790 JLINK_WriteReg(R4, 0x00000000)  returns 0x00 (0000ms, 369165ms total)
T0894 47264:790 JLINK_WriteReg(R5, 0x00000000)  returns 0x00 (0000ms, 369165ms total)
T0894 47264:790 JLINK_WriteReg(R6, 0x00000000)  returns 0x00 (0000ms, 369165ms total)
T0894 47264:790 JLINK_WriteReg(R7, 0x00000000)  returns 0x00 (0000ms, 369165ms total)
T0894 47264:790 JLINK_WriteReg(R8, 0x00000000)  returns 0x00 (0000ms, 369165ms total)
T0894 47264:790 JLINK_WriteReg(R9, 0x2000017C)  returns 0x00 (0000ms, 369165ms total)
T0894 47264:790 JLINK_WriteReg(R10, 0x00000000)  returns 0x00 (0000ms, 369165ms total)
T0894 47264:790 JLINK_WriteReg(R11, 0x00000000)  returns 0x00 (0000ms, 369165ms total)
T0894 47264:790 JLINK_WriteReg(R12, 0x00000000)  returns 0x00 (0001ms, 369166ms total)
T0894 47264:791 JLINK_WriteReg(R13 (SP), 0x20001000)  returns 0x00 (0000ms, 369166ms total)
T0894 47264:791 JLINK_WriteReg(R14, 0x20000001)  returns 0x00 (0000ms, 369166ms total)
T0894 47264:791 JLINK_WriteReg(R15 (PC), 0x20000020)  returns 0x00 (0000ms, 369166ms total)
T0894 47264:791 JLINK_WriteReg(XPSR, 0x01000000)  returns 0x00 (0000ms, 369166ms total)
T0894 47264:791 JLINK_WriteReg(MSP, 0x20001000)  returns 0x00 (0000ms, 369166ms total)
T0894 47264:791 JLINK_WriteReg(PSP, 0x20001000)  returns 0x00 (0000ms, 369166ms total)
T0894 47264:791 JLINK_WriteReg(CFBP, 0x00000000)  returns 0x00 (0000ms, 369166ms total)
T0894 47264:791 JLINK_SetBPEx(Addr = 0x20000000, Type = 0xFFFFFFF2)  returns 0x00000002 (0000ms, 369166ms total)
T0894 47264:791 JLINK_Go() -- CPU_ReadMem(4 bytes @ 0xE0001000) (0003ms, 369169ms total)
T0894 47264:794 JLINK_IsHalted() -- CPU_ReadMem(2 bytes @ 0x20000000)  returns TRUE (0004ms, 369173ms total)
T0894 47264:798 JLINK_ReadReg(R15 (PC))  returns 0x20000000 (0000ms, 369169ms total)
T0894 47264:798 JLINK_ClrBPEx(BPHandle = 0x00000002)  returns 0x00 (0000ms, 369169ms total)
T0894 47264:799 JLINK_ReadReg(R0)  returns 0x00000001 (0000ms, 369170ms total)
T0894 47264:799 JLINK_WriteReg(R0, 0x08000000)  returns 0x00 (0000ms, 369170ms total)
T0894 47264:799 JLINK_WriteReg(R1, 0x00004000)  returns 0x00 (0000ms, 369170ms total)
T0894 47264:799 JLINK_WriteReg(R2, 0x000000FF)  returns 0x00 (0000ms, 369170ms total)
T0894 47264:799 JLINK_WriteReg(R3, 0x00000000)  returns 0x00 (0000ms, 369170ms total)
T0894 47264:799 JLINK_WriteReg(R4, 0x00000000)  returns 0x00 (0001ms, 369171ms total)
T0894 47264:800 JLINK_WriteReg(R5, 0x00000000)  returns 0x00 (0000ms, 369171ms total)
T0894 47264:800 JLINK_WriteReg(R6, 0x00000000)  returns 0x00 (0000ms, 369171ms total)
T0894 47264:800 JLINK_WriteReg(R7, 0x00000000)  returns 0x00 (0000ms, 369171ms total)
T0894 47264:800 JLINK_WriteReg(R8, 0x00000000)  returns 0x00 (0000ms, 369171ms total)
T0894 47264:800 JLINK_WriteReg(R9, 0x2000017C)  returns 0x00 (0000ms, 369171ms total)
T0894 47264:800 JLINK_WriteReg(R10, 0x00000000)  returns 0x00 (0000ms, 369171ms total)
T0894 47264:800 JLINK_WriteReg(R11, 0x00000000)  returns 0x00 (0000ms, 369171ms total)
T0894 47264:800 JLINK_WriteReg(R12, 0x00000000)  returns 0x00 (0000ms, 369171ms total)
T0894 47264:800 JLINK_WriteReg(R13 (SP), 0x20001000)  returns 0x00 (0000ms, 369171ms total)
T0894 47264:800 JLINK_WriteReg(R14, 0x20000001)  returns 0x00 (0001ms, 369172ms total)
T0894 47264:801 JLINK_WriteReg(R15 (PC), 0x200000BC)  returns 0x00 (0000ms, 369172ms total)
T0894 47264:801 JLINK_WriteReg(XPSR, 0x01000000)  returns 0x00 (0000ms, 369172ms total)
T0894 47264:801 JLINK_WriteReg(MSP, 0x20001000)  returns 0x00 (0000ms, 369172ms total)
T0894 47264:801 JLINK_WriteReg(PSP, 0x20001000)  returns 0x00 (0000ms, 369172ms total)
T0894 47264:801 JLINK_WriteReg(CFBP, 0x00000000)  returns 0x00 (0000ms, 369172ms total)
T0894 47264:801 JLINK_SetBPEx(Addr = 0x20000000, Type = 0xFFFFFFF2)  returns 0x00000003 (0000ms, 369172ms total)
T0894 47264:801 JLINK_Go() -- CPU_ReadMem(4 bytes @ 0xE0001000) (0003ms, 369175ms total)
T0894 47264:804 JLINK_IsHalted()  returns FALSE (0001ms, 369176ms total)
T0894 47264:953 JLINK_IsHalted()  returns FALSE (0000ms, 369175ms total)
T0894 47264:968 JLINK_IsHalted()  returns FALSE (0000ms, 369175ms total)
T0894 47264:970 JLINK_IsHalted()  returns FALSE (0000ms, 369175ms total)
T0894 47264:973 JLINK_IsHalted()  returns FALSE (0000ms, 369175ms total)
T0894 47264:975 JLINK_IsHalted()  returns FALSE (0000ms, 369175ms total)
T0894 47264:990 JLINK_IsHalted()  returns FALSE (0000ms, 369175ms total)
T0894 47264:993 JLINK_IsHalted()  returns FALSE (0000ms, 369175ms total)
T0894 47265:002 JLINK_IsHalted()  returns FALSE (0000ms, 369175ms total)
T0894 47265:012 JLINK_IsHalted()  returns FALSE (0000ms, 369175ms total)
T0894 47265:014 JLINK_IsHalted()  returns FALSE (0000ms, 369175ms total)
T0894 47265:017 JLINK_IsHalted()  returns FALSE (0000ms, 369175ms total)
T0894 47265:031 JLINK_IsHalted()  returns FALSE (0001ms, 369176ms total)
T0894 47265:033 JLINK_IsHalted()  returns FALSE (0001ms, 369176ms total)
T0894 47265:035 JLINK_IsHalted()  returns FALSE (0001ms, 369176ms total)
T0894 47265:038 JLINK_IsHalted()  returns FALSE (0000ms, 369175ms total)
T0894 47265:048 JLINK_IsHalted()  returns FALSE (0000ms, 369175ms total)
T0894 47265:050 JLINK_IsHalted()  returns FALSE (0000ms, 369175ms total)
T0894 47265:063 JLINK_IsHalted()  returns FALSE (0001ms, 369176ms total)
T0894 47265:073 JLINK_IsHalted()  returns FALSE (0001ms, 369176ms total)
T0894 47265:076 JLINK_IsHalted()  returns FALSE (0000ms, 369175ms total)
T0894 47265:078 JLINK_IsHalted()  returns FALSE (0001ms, 369176ms total)
T0894 47265:080 JLINK_IsHalted()  returns FALSE (0000ms, 369175ms total)
T0894 47265:083 JLINK_IsHalted()  returns FALSE (0000ms, 369175ms total)
T0894 47265:085 JLINK_IsHalted()  returns FALSE (0000ms, 369175ms total)
T0894 47265:107 JLINK_IsHalted()  returns FALSE (0000ms, 369175ms total)
T0894 47265:109 JLINK_IsHalted()  returns FALSE (0000ms, 369175ms total)
T0894 47265:111 JLINK_IsHalted()  returns FALSE (0001ms, 369176ms total)
T0894 47265:114 JLINK_IsHalted()  returns FALSE (0001ms, 369176ms total)
T0894 47265:128 JLINK_IsHalted()  returns FALSE (0000ms, 369175ms total)
T0894 47265:130 JLINK_IsHalted()  returns FALSE (0000ms, 369175ms total)
T0894 47265:142 JLINK_IsHalted()  returns FALSE (0000ms, 369175ms total)
T0894 47265:144 JLINK_IsHalted()  returns FALSE (0000ms, 369175ms total)
T0894 47265:155 JLINK_IsHalted() -- CPU_ReadMem(2 bytes @ 0x20000000)  returns TRUE (0004ms, 369179ms total)
T0894 47265:159 JLINK_ReadReg(R15 (PC))  returns 0x20000000 (0000ms, 369175ms total)
T0894 47265:159 JLINK_ClrBPEx(BPHandle = 0x00000003)  returns 0x00 (0000ms, 369175ms total)
T0894 47265:159 JLINK_ReadReg(R0)  returns 0x00000000 (0000ms, 369175ms total)
T0894 47265:162 JLINK_WriteReg(R0, 0x08004000)  returns 0x00 (0000ms, 369175ms total)
T0894 47265:162 JLINK_WriteReg(R1, 0x00004000)  returns 0x00 (0000ms, 369175ms total)
T0894 47265:162 JLINK_WriteReg(R2, 0x000000FF)  returns 0x00 (0000ms, 369175ms total)
T0894 47265:162 JLINK_WriteReg(R3, 0x00000000)  returns 0x00 (0000ms, 369175ms total)
T0894 47265:162 JLINK_WriteReg(R4, 0x00000000)  returns 0x00 (0000ms, 369175ms total)
T0894 47265:162 JLINK_WriteReg(R5, 0x00000000)  returns 0x00 (0000ms, 369175ms total)
T0894 47265:162 JLINK_WriteReg(R6, 0x00000000)  returns 0x00 (0000ms, 369175ms total)
T0894 47265:162 JLINK_WriteReg(R7, 0x00000000)  returns 0x00 (0000ms, 369175ms total)
T0894 47265:162 JLINK_WriteReg(R8, 0x00000000)  returns 0x00 (0001ms, 369176ms total)
T0894 47265:163 JLINK_WriteReg(R9, 0x2000017C)  returns 0x00 (0000ms, 369176ms total)
T0894 47265:163 JLINK_WriteReg(R10, 0x00000000)  returns 0x00 (0000ms, 369176ms total)
T0894 47265:163 JLINK_WriteReg(R11, 0x00000000)  returns 0x00 (0000ms, 369176ms total)
T0894 47265:163 JLINK_WriteReg(R12, 0x00000000)  returns 0x00 (0000ms, 369176ms total)
T0894 47265:163 JLINK_WriteReg(R13 (SP), 0x20001000)  returns 0x00 (0000ms, 369176ms total)
T0894 47265:163 JLINK_WriteReg(R14, 0x20000001)  returns 0x00 (0000ms, 369176ms total)
T0894 47265:163 JLINK_WriteReg(R15 (PC), 0x20000020)  returns 0x00 (0000ms, 369176ms total)
T0894 47265:163 JLINK_WriteReg(XPSR, 0x01000000)  returns 0x00 (0000ms, 369176ms total)
T0894 47265:163 JLINK_WriteReg(MSP, 0x20001000)  returns 0x00 (0001ms, 369177ms total)
T0894 47265:164 JLINK_WriteReg(PSP, 0x20001000)  returns 0x00 (0000ms, 369177ms total)
T0894 47265:164 JLINK_WriteReg(CFBP, 0x00000000)  returns 0x00 (0000ms, 369177ms total)
T0894 47265:164 JLINK_SetBPEx(Addr = 0x20000000, Type = 0xFFFFFFF2)  returns 0x00000004 (0000ms, 369177ms total)
T0894 47265:164 JLINK_Go() -- CPU_ReadMem(4 bytes @ 0xE0001000) (0002ms, 369179ms total)
T0894 47265:166 JLINK_IsHalted() -- CPU_ReadMem(2 bytes @ 0x20000000)  returns TRUE (0004ms, 369183ms total)
T0894 47265:170 JLINK_ReadReg(R15 (PC))  returns 0x20000000 (0001ms, 369180ms total)
T0894 47265:171 JLINK_ClrBPEx(BPHandle = 0x00000004)  returns 0x00 (0000ms, 369180ms total)
T0894 47265:171 JLINK_ReadReg(R0)  returns 0x00000001 (0000ms, 369180ms total)
T0894 47265:171 JLINK_WriteReg(R0, 0x08004000)  returns 0x00 (0000ms, 369180ms total)
T0894 47265:171 JLINK_WriteReg(R1, 0x00004000)  returns 0x00 (0000ms, 369180ms total)
T0894 47265:171 JLINK_WriteReg(R2, 0x000000FF)  returns 0x00 (0000ms, 369180ms total)
T0894 47265:171 JLINK_WriteReg(R3, 0x00000000)  returns 0x00 (0000ms, 369180ms total)
T0894 47265:171 JLINK_WriteReg(R4, 0x00000000)  returns 0x00 (0000ms, 369180ms total)
T0894 47265:171 JLINK_WriteReg(R5, 0x00000000)  returns 0x00 (0000ms, 369180ms total)
T0894 47265:171 JLINK_WriteReg(R6, 0x00000000)  returns 0x00 (0000ms, 369180ms total)
T0894 47265:171 JLINK_WriteReg(R7, 0x00000000)  returns 0x00 (0000ms, 369180ms total)
T0894 47265:171 JLINK_WriteReg(R8, 0x00000000)  returns 0x00 (0000ms, 369180ms total)
T0894 47265:171 JLINK_WriteReg(R9, 0x2000017C)  returns 0x00 (0000ms, 369180ms total)
T0894 47265:172 JLINK_WriteReg(R10, 0x00000000)  returns 0x00 (0000ms, 369181ms total)
T0894 47265:172 JLINK_WriteReg(R11, 0x00000000)  returns 0x00 (0000ms, 369181ms total)
T0894 47265:172 JLINK_WriteReg(R12, 0x00000000)  returns 0x00 (0000ms, 369181ms total)
T0894 47265:172 JLINK_WriteReg(R13 (SP), 0x20001000)  returns 0x00 (0000ms, 369181ms total)
T0894 47265:172 JLINK_WriteReg(R14, 0x20000001)  returns 0x00 (0000ms, 369181ms total)
T0894 47265:172 JLINK_WriteReg(R15 (PC), 0x200000BC)  returns 0x00 (0000ms, 369181ms total)
T0894 47265:172 JLINK_WriteReg(XPSR, 0x01000000)  returns 0x00 (0000ms, 369181ms total)
T0894 47265:172 JLINK_WriteReg(MSP, 0x20001000)  returns 0x00 (0000ms, 369181ms total)
T0894 47265:172 JLINK_WriteReg(PSP, 0x20001000)  returns 0x00 (0000ms, 369181ms total)
T0894 47265:172 JLINK_WriteReg(CFBP, 0x00000000)  returns 0x00 (0000ms, 369181ms total)
T0894 47265:172 JLINK_SetBPEx(Addr = 0x20000000, Type = 0xFFFFFFF2)  returns 0x00000005 (0000ms, 369181ms total)
T0894 47265:172 JLINK_Go() -- CPU_ReadMem(4 bytes @ 0xE0001000) (0003ms, 369184ms total)
T0894 47265:175 JLINK_IsHalted()  returns FALSE (0000ms, 369184ms total)
T0894 47265:203 JLINK_IsHalted()  returns FALSE (0000ms, 369184ms total)
T0894 47265:205 JLINK_IsHalted()  returns FALSE (0000ms, 369184ms total)
T0894 47265:207 JLINK_IsHalted()  returns FALSE (0001ms, 369185ms total)
T0894 47265:220 JLINK_IsHalted()  returns FALSE (0001ms, 369185ms total)
T0894 47265:223 JLINK_IsHalted()  returns FALSE (0000ms, 369184ms total)
T0894 47265:233 JLINK_IsHalted()  returns FALSE (0001ms, 369185ms total)
T0894 47265:235 JLINK_IsHalted()  returns FALSE (0001ms, 369185ms total)
T0894 47265:248 JLINK_IsHalted()  returns FALSE (0001ms, 369185ms total)
T0894 47265:250 JLINK_IsHalted()  returns FALSE (0001ms, 369185ms total)
T0894 47265:262 JLINK_IsHalted()  returns FALSE (0001ms, 369185ms total)
T0894 47265:264 JLINK_IsHalted()  returns FALSE (0001ms, 369185ms total)
T0894 47265:266 JLINK_IsHalted()  returns FALSE (0000ms, 369184ms total)
T0894 47265:280 JLINK_IsHalted()  returns FALSE (0000ms, 369184ms total)
T0894 47265:282 JLINK_IsHalted()  returns FALSE (0000ms, 369184ms total)
T0894 47265:293 JLINK_IsHalted()  returns FALSE (0000ms, 369184ms total)
T0894 47265:295 JLINK_IsHalted()  returns FALSE (0001ms, 369185ms total)
T0894 47265:298 JLINK_IsHalted()  returns FALSE (0000ms, 369184ms total)
T0894 47265:310 JLINK_IsHalted()  returns FALSE (0000ms, 369184ms total)
T0894 47265:312 JLINK_IsHalted()  returns FALSE (0001ms, 369185ms total)
T0894 47265:324 JLINK_IsHalted()  returns FALSE (0001ms, 369185ms total)
T0894 47265:326 JLINK_IsHalted()  returns FALSE (0000ms, 369184ms total)
T0894 47265:328 JLINK_IsHalted()  returns FALSE (0001ms, 369185ms total)
T0894 47265:330 JLINK_IsHalted()  returns FALSE (0001ms, 369185ms total)
T0894 47265:333 JLINK_IsHalted()  returns FALSE (0000ms, 369184ms total)
T0894 47265:346 JLINK_IsHalted()  returns FALSE (0000ms, 369184ms total)
T0894 47265:356 JLINK_IsHalted()  returns FALSE (0001ms, 369185ms total)
T0894 47265:358 JLINK_IsHalted()  returns FALSE (0001ms, 369185ms total)
T0894 47265:361 JLINK_IsHalted()  returns FALSE (0001ms, 369185ms total)
T0894 47265:363 JLINK_IsHalted()  returns FALSE (0001ms, 369185ms total)
T0894 47265:365 JLINK_IsHalted()  returns FALSE (0000ms, 369184ms total)
T0894 47265:374 JLINK_IsHalted()  returns FALSE (0001ms, 369185ms total)
T0894 47265:377 JLINK_IsHalted()  returns FALSE (0000ms, 369184ms total)
T0894 47265:379 JLINK_IsHalted()  returns FALSE (0000ms, 369184ms total)
T0894 47265:404 JLINK_IsHalted()  returns FALSE (0000ms, 369184ms total)
T0894 47265:406 JLINK_IsHalted()  returns FALSE (0000ms, 369184ms total)
T0894 47265:408 JLINK_IsHalted()  returns FALSE (0000ms, 369184ms total)
T0894 47265:421 JLINK_IsHalted()  returns FALSE (0000ms, 369184ms total)
T0894 47265:423 JLINK_IsHalted()  returns FALSE (0000ms, 369184ms total)
T0894 47265:435 JLINK_IsHalted()  returns FALSE (0000ms, 369184ms total)
T0894 47265:437 JLINK_IsHalted()  returns FALSE (0000ms, 369184ms total)
T0894 47265:439 JLINK_IsHalted()  returns FALSE (0000ms, 369184ms total)
T0894 47265:441 JLINK_IsHalted()  returns FALSE (0000ms, 369184ms total)
T0894 47265:443 JLINK_IsHalted()  returns FALSE (0000ms, 369184ms total)
T0894 47265:455 JLINK_IsHalted()  returns FALSE (0000ms, 369184ms total)
T0894 47265:457 JLINK_IsHalted()  returns FALSE (0000ms, 369184ms total)
T0894 47265:459 JLINK_IsHalted()  returns FALSE (0000ms, 369184ms total)
T0894 47265:461 JLINK_IsHalted()  returns FALSE (0000ms, 369184ms total)
T0894 47265:501 JLINK_IsHalted()  returns FALSE (0000ms, 369184ms total)
T0894 47265:515 JLINK_IsHalted()  returns FALSE (0000ms, 369184ms total)
T0894 47265:517 JLINK_IsHalted()  returns FALSE (0000ms, 369184ms total)
T0894 47265:531 JLINK_IsHalted()  returns FALSE (0000ms, 369184ms total)
T0894 47265:533 JLINK_IsHalted()  returns FALSE (0000ms, 369184ms total)
T0894 47265:543 JLINK_IsHalted() -- CPU_ReadMem(2 bytes @ 0x20000000)  returns TRUE (0003ms, 369187ms total)
T0894 47265:546 JLINK_ReadReg(R15 (PC))  returns 0x20000000 (0000ms, 369184ms total)
T0894 47265:546 JLINK_ClrBPEx(BPHandle = 0x00000005)  returns 0x00 (0000ms, 369184ms total)
T0894 47265:547 JLINK_ReadReg(R0)  returns 0x00000000 (0000ms, 369185ms total)
T0894 47265:547 JLINK_WriteReg(R0, 0x00000001)  returns 0x00 (0000ms, 369185ms total)
T0894 47265:547 JLINK_WriteReg(R1, 0x00004000)  returns 0x00 (0000ms, 369185ms total)
T0894 47265:547 JLINK_WriteReg(R2, 0x000000FF)  returns 0x00 (0000ms, 369185ms total)
T0894 47265:547 JLINK_WriteReg(R3, 0x00000000)  returns 0x00 (0000ms, 369185ms total)
T0894 47265:547 JLINK_WriteReg(R4, 0x00000000)  returns 0x00 (0001ms, 369186ms total)
T0894 47265:548 JLINK_WriteReg(R5, 0x00000000)  returns 0x00 (0000ms, 369186ms total)
T0894 47265:548 JLINK_WriteReg(R6, 0x00000000)  returns 0x00 (0000ms, 369186ms total)
T0894 47265:548 JLINK_WriteReg(R7, 0x00000000)  returns 0x00 (0000ms, 369186ms total)
T0894 47265:548 JLINK_WriteReg(R8, 0x00000000)  returns 0x00 (0000ms, 369186ms total)
T0894 47265:548 JLINK_WriteReg(R9, 0x2000017C)  returns 0x00 (0000ms, 369186ms total)
T0894 47265:548 JLINK_WriteReg(R10, 0x00000000)  returns 0x00 (0000ms, 369186ms total)
T0894 47265:548 JLINK_WriteReg(R11, 0x00000000)  returns 0x00 (0000ms, 369186ms total)
T0894 47265:548 JLINK_WriteReg(R12, 0x00000000)  returns 0x00 (0000ms, 369186ms total)
T0894 47265:548 JLINK_WriteReg(R13 (SP), 0x20001000)  returns 0x00 (0000ms, 369186ms total)
T0894 47265:548 JLINK_WriteReg(R14, 0x20000001)  returns 0x00 (0000ms, 369186ms total)
T0894 47265:548 JLINK_WriteReg(R15 (PC), 0x20000082)  returns 0x00 (0001ms, 369187ms total)
T0894 47265:549 JLINK_WriteReg(XPSR, 0x01000000)  returns 0x00 (0000ms, 369187ms total)
T0894 47265:549 JLINK_WriteReg(MSP, 0x20001000)  returns 0x00 (0000ms, 369187ms total)
T0894 47265:549 JLINK_WriteReg(PSP, 0x20001000)  returns 0x00 (0000ms, 369187ms total)
T0894 47265:549 JLINK_WriteReg(CFBP, 0x00000000)  returns 0x00 (0000ms, 369187ms total)
T0894 47265:549 JLINK_SetBPEx(Addr = 0x20000000, Type = 0xFFFFFFF2)  returns 0x00000006 (0000ms, 369187ms total)
T0894 47265:549 JLINK_Go() -- CPU_ReadMem(4 bytes @ 0xE0001000) (0002ms, 369189ms total)
T0894 47265:551 JLINK_IsHalted() -- CPU_ReadMem(2 bytes @ 0x20000000)  returns TRUE (0004ms, 369193ms total)
T0894 47265:555 JLINK_ReadReg(R15 (PC))  returns 0x20000000 (0000ms, 369189ms total)
T0894 47265:555 JLINK_ClrBPEx(BPHandle = 0x00000006)  returns 0x00 (0000ms, 369189ms total)
T0894 47265:555 JLINK_ReadReg(R0)  returns 0x00000000 (0000ms, 369189ms total)
T0894 47265:647 JLINK_WriteMem(0x20000000, 0x0180 Bytes, ...) - Data: 00 BE 0A E0 0D 78 2D 06 68 40 08 24 40 00 00 D3 ... -- CPU_WriteMem(384 bytes @ 0x20000000)  returns 0x180 (0005ms, 369194ms total)
T0894 47265:653 JLINK_WriteReg(R0, 0x08000000)  returns 0x00 (0000ms, 369194ms total)
T0894 47265:653 JLINK_WriteReg(R1, 0x0A037A00)  returns 0x00 (0000ms, 369194ms total)
T0894 47265:653 JLINK_WriteReg(R2, 0x00000002)  returns 0x00 (0000ms, 369194ms total)
T0894 47265:653 JLINK_WriteReg(R3, 0x00000000)  returns 0x00 (0001ms, 369195ms total)
T0894 47265:654 JLINK_WriteReg(R4, 0x00000000)  returns 0x00 (0000ms, 369195ms total)
T0894 47265:654 JLINK_WriteReg(R5, 0x00000000)  returns 0x00 (0000ms, 369195ms total)
T0894 47265:654 JLINK_WriteReg(R6, 0x00000000)  returns 0x00 (0000ms, 369195ms total)
T0894 47265:654 JLINK_WriteReg(R7, 0x00000000)  returns 0x00 (0001ms, 369196ms total)
T0894 47265:655 JLINK_WriteReg(R8, 0x00000000)  returns 0x00 (0000ms, 369196ms total)
T0894 47265:655 JLINK_WriteReg(R9, 0x2000017C)  returns 0x00 (0000ms, 369196ms total)
T0894 47265:655 JLINK_WriteReg(R10, 0x00000000)  returns 0x00 (0000ms, 369196ms total)
T0894 47265:656 JLINK_WriteReg(R11, 0x00000000)  returns 0x00 (0000ms, 369197ms total)
T0894 47265:656 JLINK_WriteReg(R12, 0x00000000)  returns 0x00 (0000ms, 369197ms total)
T0894 47265:656 JLINK_WriteReg(R13 (SP), 0x20001000)  returns 0x00 (0000ms, 369197ms total)
T0894 47265:656 JLINK_WriteReg(R14, 0x20000001)  returns 0x00 (0001ms, 369198ms total)
T0894 47265:657 JLINK_WriteReg(R15 (PC), 0x20000054)  returns 0x00 (0000ms, 369198ms total)
T0894 47265:657 JLINK_WriteReg(XPSR, 0x01000000)  returns 0x00 (0000ms, 369198ms total)
T0894 47265:657 JLINK_WriteReg(MSP, 0x20001000)  returns 0x00 (0000ms, 369198ms total)
T0894 47265:657 JLINK_WriteReg(PSP, 0x20001000)  returns 0x00 (0001ms, 369199ms total)
T0894 47265:658 JLINK_WriteReg(CFBP, 0x00000000)  returns 0x00 (0000ms, 369199ms total)
T0894 47265:658 JLINK_SetBPEx(Addr = 0x20000000, Type = 0xFFFFFFF2) -- CPU_ReadMem(2 bytes @ 0x20000000)  returns 0x00000007 (0001ms, 369200ms total)
T0894 47265:659 JLINK_Go() -- CPU_WriteMem(2 bytes @ 0x20000000) -- CPU_ReadMem(4 bytes @ 0xE0001000) (0003ms, 369203ms total)
T0894 47265:662 JLINK_IsHalted() -- CPU_ReadMem(2 bytes @ 0x20000000)  returns TRUE (0004ms, 369207ms total)
T0894 47265:666 JLINK_ReadReg(R15 (PC))  returns 0x20000000 (0000ms, 369203ms total)
T0894 47265:666 JLINK_ClrBPEx(BPHandle = 0x00000007)  returns 0x00 (0000ms, 369203ms total)
T0894 47265:666 JLINK_ReadReg(R0)  returns 0x00000000 (0001ms, 369204ms total)
T0894 47265:667 JLINK_WriteMem(0x20000180, 0x0280 Bytes, ...) - Data: F0 54 00 20 59 02 00 08 51 30 00 08 4D 30 00 08 ... -- CPU_WriteMem(640 bytes @ 0x20000180)  returns 0x280 (0009ms, 369213ms total)
T0894 47265:676 JLINK_WriteMem(0x20000400, 0x0180 Bytes, ...) - Data: 05 46 00 20 92 46 9B 46 88 46 06 46 81 46 40 24 ... -- CPU_WriteMem(384 bytes @ 0x20000400)  returns 0x180 (0006ms, 369219ms total)
T0894 47265:682 JLINK_WriteReg(R0, 0x08000000)  returns 0x00 (0000ms, 369219ms total)
T0894 47265:682 JLINK_WriteReg(R1, 0x00000400)  returns 0x00 (0000ms, 369219ms total)
T0894 47265:682 JLINK_WriteReg(R2, 0x20000180)  returns 0x00 (0000ms, 369219ms total)
T0894 47265:682 JLINK_WriteReg(R3, 0x00000000)  returns 0x00 (0001ms, 369220ms total)
T0894 47265:683 JLINK_WriteReg(R4, 0x00000000)  returns 0x00 (0000ms, 369220ms total)
T0894 47265:683 JLINK_WriteReg(R5, 0x00000000)  returns 0x00 (0000ms, 369220ms total)
T0894 47265:683 JLINK_WriteReg(R6, 0x00000000)  returns 0x00 (0000ms, 369220ms total)
T0894 47265:683 JLINK_WriteReg(R7, 0x00000000)  returns 0x00 (0001ms, 369221ms total)
T0894 47265:684 JLINK_WriteReg(R8, 0x00000000)  returns 0x00 (0000ms, 369221ms total)
T0894 47265:684 JLINK_WriteReg(R9, 0x2000017C)  returns 0x00 (0000ms, 369221ms total)
T0894 47265:684 JLINK_WriteReg(R10, 0x00000000)  returns 0x00 (0000ms, 369221ms total)
T0894 47265:684 JLINK_WriteReg(R11, 0x00000000)  returns 0x00 (0000ms, 369221ms total)
T0894 47265:684 JLINK_WriteReg(R12, 0x00000000)  returns 0x00 (0000ms, 369221ms total)
T0894 47265:685 JLINK_WriteReg(R13 (SP), 0x20001000)  returns 0x00 (0000ms, 369222ms total)
T0894 47265:685 JLINK_WriteReg(R14, 0x20000001)  returns 0x00 (0000ms, 369222ms total)
T0894 47265:685 JLINK_WriteReg(R15 (PC), 0x20000108)  returns 0x00 (0000ms, 369222ms total)
T0894 47265:685 JLINK_WriteReg(XPSR, 0x01000000)  returns 0x00 (0000ms, 369222ms total)
T0894 47265:685 JLINK_WriteReg(MSP, 0x20001000)  returns 0x00 (0000ms, 369222ms total)
T0894 47265:686 JLINK_WriteReg(PSP, 0x20001000)  returns 0x00 (0000ms, 369223ms total)
T0894 47265:686 JLINK_WriteReg(CFBP, 0x00000000)  returns 0x00 (0000ms, 369223ms total)
T0894 47265:686 JLINK_SetBPEx(Addr = 0x20000000, Type = 0xFFFFFFF2)  returns 0x00000008 (0000ms, 369223ms total)
T0894 47265:686 JLINK_Go() -- CPU_ReadMem(4 bytes @ 0xE0001000) (0002ms, 369225ms total)
T0894 47265:688 JLINK_IsHalted()  returns FALSE (0001ms, 369226ms total)
T0894 47265:707 JLINK_IsHalted() -- CPU_ReadMem(2 bytes @ 0x20000000)  returns TRUE (0004ms, 369229ms total)
T0894 47265:711 JLINK_ReadReg(R15 (PC))  returns 0x20000000 (0000ms, 369225ms total)
T0894 47265:711 JLINK_ClrBPEx(BPHandle = 0x00000008)  returns 0x00 (0000ms, 369225ms total)
T0894 47265:711 JLINK_ReadReg(R0)  returns 0x00000000 (0000ms, 369225ms total)
T0894 47265:712 JLINK_WriteMem(0x20000180, 0x0280 Bytes, ...) - Data: 10 BC 70 47 49 B1 CC F1 20 04 21 FA 04 F4 11 FA ... -- CPU_WriteMem(640 bytes @ 0x20000180)  returns 0x280 (0008ms, 369233ms total)
T0894 47265:720 JLINK_WriteMem(0x20000400, 0x0180 Bytes, ...) - Data: 0A 47 01 F0 BF F9 18 B1 2F 21 08 A0 03 F0 72 FE ... -- CPU_WriteMem(384 bytes @ 0x20000400)  returns 0x180 (0005ms, 369238ms total)
T0894 47265:725 JLINK_WriteReg(R0, 0x08000400)  returns 0x00 (0000ms, 369238ms total)
T0894 47265:725 JLINK_WriteReg(R1, 0x00000400)  returns 0x00 (0000ms, 369238ms total)
T0894 47265:725 JLINK_WriteReg(R2, 0x20000180)  returns 0x00 (0000ms, 369238ms total)
T0894 47265:725 JLINK_WriteReg(R3, 0x00000000)  returns 0x00 (0000ms, 369238ms total)
T0894 47265:725 JLINK_WriteReg(R4, 0x00000000)  returns 0x00 (0000ms, 369238ms total)
T0894 47265:725 JLINK_WriteReg(R5, 0x00000000)  returns 0x00 (0000ms, 369238ms total)
T0894 47265:725 JLINK_WriteReg(R6, 0x00000000)  returns 0x00 (0000ms, 369238ms total)
T0894 47265:725 JLINK_WriteReg(R7, 0x00000000)  returns 0x00 (0000ms, 369238ms total)
T0894 47265:725 JLINK_WriteReg(R8, 0x00000000)  returns 0x00 (0001ms, 369239ms total)
T0894 47265:726 JLINK_WriteReg(R9, 0x2000017C)  returns 0x00 (0000ms, 369239ms total)
T0894 47265:726 JLINK_WriteReg(R10, 0x00000000)  returns 0x00 (0000ms, 369239ms total)
T0894 47265:726 JLINK_WriteReg(R11, 0x00000000)  returns 0x00 (0000ms, 369239ms total)
T0894 47265:726 JLINK_WriteReg(R12, 0x00000000)  returns 0x00 (0000ms, 369239ms total)
T0894 47265:726 JLINK_WriteReg(R13 (SP), 0x20001000)  returns 0x00 (0000ms, 369239ms total)
T0894 47265:726 JLINK_WriteReg(R14, 0x20000001)  returns 0x00 (0000ms, 369239ms total)
T0894 47265:726 JLINK_WriteReg(R15 (PC), 0x20000108)  returns 0x00 (0000ms, 369239ms total)
T0894 47265:726 JLINK_WriteReg(XPSR, 0x01000000)  returns 0x00 (0000ms, 369239ms total)
T0894 47265:726 JLINK_WriteReg(MSP, 0x20001000)  returns 0x00 (0001ms, 369240ms total)
T0894 47265:727 JLINK_WriteReg(PSP, 0x20001000)  returns 0x00 (0000ms, 369240ms total)
T0894 47265:727 JLINK_WriteReg(CFBP, 0x00000000)  returns 0x00 (0000ms, 369240ms total)
T0894 47265:727 JLINK_SetBPEx(Addr = 0x20000000, Type = 0xFFFFFFF2)  returns 0x00000009 (0000ms, 369240ms total)
T0894 47265:727 JLINK_Go() -- CPU_ReadMem(4 bytes @ 0xE0001000) (0002ms, 369242ms total)
T0894 47265:729 JLINK_IsHalted()  returns FALSE (0001ms, 369243ms total)
T0894 47265:751 JLINK_IsHalted() -- CPU_ReadMem(2 bytes @ 0x20000000)  returns TRUE (0003ms, 369245ms total)
T0894 47265:754 JLINK_ReadReg(R15 (PC))  returns 0x20000000 (0000ms, 369242ms total)
T0894 47265:754 JLINK_ClrBPEx(BPHandle = 0x00000009)  returns 0x00 (0001ms, 369243ms total)
T0894 47265:755 JLINK_ReadReg(R0)  returns 0x00000000 (0000ms, 369243ms total)
T0894 47265:756 JLINK_WriteMem(0x20000180, 0x0280 Bytes, ...) - Data: C5 E9 01 74 C5 E9 03 46 6C 61 AC 61 EC 61 2C 62 ... -- CPU_WriteMem(640 bytes @ 0x20000180)  returns 0x280 (0009ms, 369252ms total)
T0894 47265:766 JLINK_WriteMem(0x20000400, 0x0180 Bytes, ...) - Data: 02 45 01 F0 31 FB 00 22 80 21 34 48 01 F0 04 FC ... -- CPU_WriteMem(384 bytes @ 0x20000400)  returns 0x180 (0005ms, 369257ms total)
T0894 47265:771 JLINK_WriteReg(R0, 0x08000800)  returns 0x00 (0000ms, 369257ms total)
T0894 47265:772 JLINK_WriteReg(R1, 0x00000400)  returns 0x00 (0000ms, 369258ms total)
T0894 47265:772 JLINK_WriteReg(R2, 0x20000180)  returns 0x00 (0000ms, 369258ms total)
T0894 47265:772 JLINK_WriteReg(R3, 0x00000000)  returns 0x00 (0000ms, 369258ms total)
T0894 47265:772 JLINK_WriteReg(R4, 0x00000000)  returns 0x00 (0000ms, 369258ms total)
T0894 47265:773 JLINK_WriteReg(R5, 0x00000000)  returns 0x00 (0000ms, 369259ms total)
T0894 47265:773 JLINK_WriteReg(R6, 0x00000000)  returns 0x00 (0000ms, 369259ms total)
T0894 47265:773 JLINK_WriteReg(R7, 0x00000000)  returns 0x00 (0000ms, 369259ms total)
T0894 47265:773 JLINK_WriteReg(R8, 0x00000000)  returns 0x00 (0001ms, 369260ms total)
T0894 47265:774 JLINK_WriteReg(R9, 0x2000017C)  returns 0x00 (0000ms, 369260ms total)
T0894 47265:774 JLINK_WriteReg(R10, 0x00000000)  returns 0x00 (0000ms, 369260ms total)
T0894 47265:774 JLINK_WriteReg(R11, 0x00000000)  returns 0x00 (0000ms, 369260ms total)
T0894 47265:774 JLINK_WriteReg(R12, 0x00000000)  returns 0x00 (0001ms, 369261ms total)
T0894 47265:775 JLINK_WriteReg(R13 (SP), 0x20001000)  returns 0x00 (0000ms, 369261ms total)
T0894 47265:775 JLINK_WriteReg(R14, 0x20000001)  returns 0x00 (0000ms, 369261ms total)
T0894 47265:775 JLINK_WriteReg(R15 (PC), 0x20000108)  returns 0x00 (0000ms, 369261ms total)
T0894 47265:776 JLINK_WriteReg(XPSR, 0x01000000)  returns 0x00 (0000ms, 369261ms total)
T0894 47265:776 JLINK_WriteReg(MSP, 0x20001000)  returns 0x00 (0000ms, 369261ms total)
T0894 47265:776 JLINK_WriteReg(PSP, 0x20001000)  returns 0x00 (0000ms, 369261ms total)
T0894 47265:777 JLINK_WriteReg(CFBP, 0x00000000)  returns 0x00 (0000ms, 369262ms total)
T0894 47265:777 JLINK_SetBPEx(Addr = 0x20000000, Type = 0xFFFFFFF2)  returns 0x0000000A (0000ms, 369262ms total)
T0894 47265:778 JLINK_Go() -- CPU_ReadMem(4 bytes @ 0xE0001000) (0003ms, 369266ms total)
T0894 47265:781 JLINK_IsHalted()  returns FALSE (0001ms, 369267ms total)
T0894 47265:845 JLINK_IsHalted() -- CPU_ReadMem(2 bytes @ 0x20000000)  returns TRUE (0004ms, 369270ms total)
T0894 47265:849 JLINK_ReadReg(R15 (PC))  returns 0x20000000 (0000ms, 369266ms total)
T0894 47265:849 JLINK_ClrBPEx(BPHandle = 0x0000000A)  returns 0x00 (0001ms, 369267ms total)
T0894 47265:850 JLINK_ReadReg(R0)  returns 0x00000000 (0000ms, 369267ms total)
T0894 47265:853 JLINK_WriteMem(0x20000180, 0x0280 Bytes, ...) - Data: 00 22 05 21 26 20 01 F0 BB FB 26 20 01 F0 AD FB ... -- CPU_WriteMem(640 bytes @ 0x20000180)  returns 0x280 (0009ms, 369276ms total)
T0894 47265:862 JLINK_WriteMem(0x20000400, 0x0180 Bytes, ...) - Data: 33 48 34 49 3C 30 C0 E9 00 14 84 60 C4 60 04 61 ... -- CPU_WriteMem(384 bytes @ 0x20000400)  returns 0x180 (0005ms, 369281ms total)
T0894 47265:868 JLINK_WriteReg(R0, 0x08000C00)  returns 0x00 (0000ms, 369281ms total)
T0894 47265:868 JLINK_WriteReg(R1, 0x00000400)  returns 0x00 (0000ms, 369281ms total)
T0894 47265:868 JLINK_WriteReg(R2, 0x20000180)  returns 0x00 (0000ms, 369281ms total)
T0894 47265:870 JLINK_WriteReg(R3, 0x00000000)  returns 0x00 (0000ms, 369281ms total)
T0894 47265:870 JLINK_WriteReg(R4, 0x00000000)  returns 0x00 (0000ms, 369281ms total)
T0894 47265:870 JLINK_WriteReg(R5, 0x00000000)  returns 0x00 (0000ms, 369281ms total)
T0894 47265:870 JLINK_WriteReg(R6, 0x00000000)  returns 0x00 (0001ms, 369282ms total)
T0894 47265:871 JLINK_WriteReg(R7, 0x00000000)  returns 0x00 (0000ms, 369282ms total)
T0894 47265:871 JLINK_WriteReg(R8, 0x00000000)  returns 0x00 (0000ms, 369282ms total)
T0894 47265:871 JLINK_WriteReg(R9, 0x2000017C)  returns 0x00 (0000ms, 369282ms total)
T0894 47265:871 JLINK_WriteReg(R10, 0x00000000)  returns 0x00 (0001ms, 369283ms total)
T0894 47265:872 JLINK_WriteReg(R11, 0x00000000)  returns 0x00 (0000ms, 369283ms total)
T0894 47265:872 JLINK_WriteReg(R12, 0x00000000)  returns 0x00 (0000ms, 369283ms total)
T0894 47265:872 JLINK_WriteReg(R13 (SP), 0x20001000)  returns 0x00 (0000ms, 369283ms total)
T0894 47265:872 JLINK_WriteReg(R14, 0x20000001)  returns 0x00 (0001ms, 369284ms total)
T0894 47265:873 JLINK_WriteReg(R15 (PC), 0x20000108)  returns 0x00 (0000ms, 369284ms total)
T0894 47265:873 JLINK_WriteReg(XPSR, 0x01000000)  returns 0x00 (0000ms, 369284ms total)
T0894 47265:873 JLINK_WriteReg(MSP, 0x20001000)  returns 0x00 (0000ms, 369284ms total)
T0894 47265:873 JLINK_WriteReg(PSP, 0x20001000)  returns 0x00 (0001ms, 369285ms total)
T0894 47265:874 JLINK_WriteReg(CFBP, 0x00000000)  returns 0x00 (0000ms, 369285ms total)
T0894 47265:874 JLINK_SetBPEx(Addr = 0x20000000, Type = 0xFFFFFFF2)  returns 0x0000000B (0000ms, 369285ms total)
T0894 47265:874 JLINK_Go() -- CPU_ReadMem(4 bytes @ 0xE0001000) (0003ms, 369288ms total)
T0894 47265:877 JLINK_IsHalted()  returns FALSE (0000ms, 369288ms total)
T0894 47265:941 JLINK_IsHalted() -- CPU_ReadMem(2 bytes @ 0x20000000)  returns TRUE (0003ms, 369291ms total)
T0894 47265:944 JLINK_ReadReg(R15 (PC))  returns 0x20000000 (0001ms, 369289ms total)
T0894 47265:945 JLINK_ClrBPEx(BPHandle = 0x0000000B)  returns 0x00 (0000ms, 369289ms total)
T0894 47265:945 JLINK_ReadReg(R0)  returns 0x00000000 (0000ms, 369289ms total)
T0894 47265:946 JLINK_WriteMem(0x20000180, 0x0280 Bytes, ...) - Data: 20 A0 03 F0 B7 F9 1E 48 26 49 80 30 01 60 C0 E9 ... -- CPU_WriteMem(640 bytes @ 0x20000180)  returns 0x280 (0008ms, 369297ms total)
T0894 47265:954 JLINK_WriteMem(0x20000400, 0x0180 Bytes, ...) - Data: 00 F0 E8 FC 00 20 10 BD 32 21 07 E0 52 21 05 E0 ... -- CPU_WriteMem(384 bytes @ 0x20000400)  returns 0x180 (0005ms, 369302ms total)
T0894 47265:959 JLINK_WriteReg(R0, 0x08001000)  returns 0x00 (0000ms, 369302ms total)
T0894 47265:959 JLINK_WriteReg(R1, 0x00000400)  returns 0x00 (0001ms, 369303ms total)
T0894 47265:960 JLINK_WriteReg(R2, 0x20000180)  returns 0x00 (0000ms, 369303ms total)
T0894 47265:960 JLINK_WriteReg(R3, 0x00000000)  returns 0x00 (0000ms, 369303ms total)
T0894 47265:960 JLINK_WriteReg(R4, 0x00000000)  returns 0x00 (0000ms, 369303ms total)
T0894 47265:960 JLINK_WriteReg(R5, 0x00000000)  returns 0x00 (0000ms, 369303ms total)
T0894 47265:960 JLINK_WriteReg(R6, 0x00000000)  returns 0x00 (0000ms, 369303ms total)
T0894 47265:960 JLINK_WriteReg(R7, 0x00000000)  returns 0x00 (0000ms, 369303ms total)
T0894 47265:960 JLINK_WriteReg(R8, 0x00000000)  returns 0x00 (0000ms, 369303ms total)
T0894 47265:960 JLINK_WriteReg(R9, 0x2000017C)  returns 0x00 (0000ms, 369303ms total)
T0894 47265:960 JLINK_WriteReg(R10, 0x00000000)  returns 0x00 (0001ms, 369304ms total)
T0894 47265:961 JLINK_WriteReg(R11, 0x00000000)  returns 0x00 (0000ms, 369304ms total)
T0894 47265:961 JLINK_WriteReg(R12, 0x00000000)  returns 0x00 (0000ms, 369304ms total)
T0894 47265:961 JLINK_WriteReg(R13 (SP), 0x20001000)  returns 0x00 (0000ms, 369304ms total)
T0894 47265:961 JLINK_WriteReg(R14, 0x20000001)  returns 0x00 (0000ms, 369304ms total)
T0894 47265:961 JLINK_WriteReg(R15 (PC), 0x20000108)  returns 0x00 (0000ms, 369304ms total)
T0894 47265:961 JLINK_WriteReg(XPSR, 0x01000000)  returns 0x00 (0000ms, 369304ms total)
T0894 47265:961 JLINK_WriteReg(MSP, 0x20001000)  returns 0x00 (0000ms, 369304ms total)
T0894 47265:961 JLINK_WriteReg(PSP, 0x20001000)  returns 0x00 (0000ms, 369304ms total)
T0894 47265:961 JLINK_WriteReg(CFBP, 0x00000000)  returns 0x00 (0000ms, 369304ms total)
T0894 47265:962 JLINK_SetBPEx(Addr = 0x20000000, Type = 0xFFFFFFF2)  returns 0x0000000C (0000ms, 369305ms total)
T0894 47265:962 JLINK_Go() -- CPU_ReadMem(4 bytes @ 0xE0001000) (0002ms, 369307ms total)
T0894 47265:964 JLINK_IsHalted()  returns FALSE (0000ms, 369307ms total)
T0894 47265:999 JLINK_IsHalted() -- CPU_ReadMem(2 bytes @ 0x20000000)  returns TRUE (0004ms, 369311ms total)
T0894 47266:003 JLINK_ReadReg(R15 (PC))  returns 0x20000000 (0000ms, 369307ms total)
T0894 47266:004 JLINK_ClrBPEx(BPHandle = 0x0000000C)  returns 0x00 (0000ms, 369308ms total)
T0894 47266:004 JLINK_ReadReg(R0)  returns 0x00000000 (0000ms, 369308ms total)
T0894 47266:007 JLINK_WriteMem(0x20000180, 0x0280 Bytes, ...) - Data: 42 76 91 F8 0E E0 80 F8 1B E0 C9 7B 81 76 B0 F9 ... -- CPU_WriteMem(640 bytes @ 0x20000180)  returns 0x280 (0009ms, 369317ms total)
T0894 47266:016 JLINK_WriteMem(0x20000400, 0x0180 Bytes, ...) - Data: F3 D0 10 BD 70 47 01 20 00 F0 22 BD 10 B5 58 B1 ... -- CPU_WriteMem(384 bytes @ 0x20000400)  returns 0x180 (0005ms, 369322ms total)
T0894 47266:021 JLINK_WriteReg(R0, 0x08001400)  returns 0x00 (0000ms, 369322ms total)
T0894 47266:021 JLINK_WriteReg(R1, 0x00000400)  returns 0x00 (0001ms, 369323ms total)
T0894 47266:022 JLINK_WriteReg(R2, 0x20000180)  returns 0x00 (0000ms, 369323ms total)
T0894 47266:022 JLINK_WriteReg(R3, 0x00000000)  returns 0x00 (0000ms, 369323ms total)
T0894 47266:022 JLINK_WriteReg(R4, 0x00000000)  returns 0x00 (0000ms, 369323ms total)
T0894 47266:022 JLINK_WriteReg(R5, 0x00000000)  returns 0x00 (0000ms, 369323ms total)
T0894 47266:022 JLINK_WriteReg(R6, 0x00000000)  returns 0x00 (0000ms, 369323ms total)
T0894 47266:022 JLINK_WriteReg(R7, 0x00000000)  returns 0x00 (0000ms, 369323ms total)
T0894 47266:022 JLINK_WriteReg(R8, 0x00000000)  returns 0x00 (0001ms, 369324ms total)
T0894 47266:023 JLINK_WriteReg(R9, 0x2000017C)  returns 0x00 (0000ms, 369324ms total)
T0894 47266:023 JLINK_WriteReg(R10, 0x00000000)  returns 0x00 (0000ms, 369324ms total)
T0894 47266:023 JLINK_WriteReg(R11, 0x00000000)  returns 0x00 (0000ms, 369324ms total)
T0894 47266:023 JLINK_WriteReg(R12, 0x00000000)  returns 0x00 (0000ms, 369324ms total)
T0894 47266:023 JLINK_WriteReg(R13 (SP), 0x20001000)  returns 0x00 (0000ms, 369324ms total)
T0894 47266:023 JLINK_WriteReg(R14, 0x20000001)  returns 0x00 (0000ms, 369324ms total)
T0894 47266:023 JLINK_WriteReg(R15 (PC), 0x20000108)  returns 0x00 (0001ms, 369325ms total)
T0894 47266:024 JLINK_WriteReg(XPSR, 0x01000000)  returns 0x00 (0000ms, 369325ms total)
T0894 47266:024 JLINK_WriteReg(MSP, 0x20001000)  returns 0x00 (0000ms, 369325ms total)
T0894 47266:024 JLINK_WriteReg(PSP, 0x20001000)  returns 0x00 (0000ms, 369325ms total)
T0894 47266:024 JLINK_WriteReg(CFBP, 0x00000000)  returns 0x00 (0000ms, 369325ms total)
T0894 47266:024 JLINK_SetBPEx(Addr = 0x20000000, Type = 0xFFFFFFF2)  returns 0x0000000D (0000ms, 369325ms total)
T0894 47266:024 JLINK_Go() -- CPU_ReadMem(4 bytes @ 0xE0001000) (0003ms, 369328ms total)
T0894 47266:027 JLINK_IsHalted()  returns FALSE (0000ms, 369328ms total)
T0894 47266:047 JLINK_IsHalted() -- CPU_ReadMem(2 bytes @ 0x20000000)  returns TRUE (0004ms, 369332ms total)
T0894 47266:051 JLINK_ReadReg(R15 (PC))  returns 0x20000000 (0000ms, 369328ms total)
T0894 47266:051 JLINK_ClrBPEx(BPHandle = 0x0000000D)  returns 0x00 (0000ms, 369328ms total)
T0894 47266:051 JLINK_ReadReg(R0)  returns 0x00000000 (0000ms, 369328ms total)
T0894 47266:051 JLINK_WriteMem(0x20000180, 0x0280 Bytes, ...) - Data: 13 B1 46 F4 80 66 01 61 21 68 48 69 4F F0 01 05 ... -- CPU_WriteMem(640 bytes @ 0x20000180)  returns 0x280 (0009ms, 369337ms total)
